T5204 000:015.103   SEGGER J-Link V8.16 Log File
T5204 000:015.346   DLL Compiled: Feb 26 2025 12:07:26
T5204 000:015.355   Logging started @ 2026-04-22 02:53
T5204 000:015.365   Process: c:\Keil_v5\UV4\UV4.exe
T5204 000:015.380 - 15.372ms 
T5204 000:015.391 JLINK_SetWarnOutHandler(...)
T5204 000:015.398 - 0.007ms 
T5204 000:015.408 JLINK_OpenEx(...)
T5204 000:020.826   Firmware: J-Link EDU Mini V1 compiled Feb 20 2025 16:27:02
T5204 000:021.458   Firmware: J-Link EDU Mini V1 compiled Feb 20 2025 16:27:02
T5204 000:051.363   Hardware: V1.00
T5204 000:051.436   S/N: 801015647
T5204 000:051.470   OEM: SEGGER
T5204 000:051.504   Feature(s): FlashBP, GDB
T5204 000:054.133   Bootloader: 2016 Nov 30
T5204 000:054.651   USB speed mode: Full speed (12 MBit/s)
T5204 000:055.297   TELNET listener socket opened on port 19021
T5204 000:055.782   WEBSRV WEBSRV_Init(): Starting webserver thread(s)
T5204 000:056.191   WEBSRV Webserver running on local port 19080
T5204 000:056.513   Looking for J-Link GUI Server exe at: c:\Keil_v5\ARM\Segger\JLinkGUIServer.exe
T5204 000:057.009   Looking for J-Link GUI Server exe at: \JLinkGUIServer.exe
T5204 000:366.969   Failed to connect to J-Link GUI Server.
T5204 000:367.060 - 351.634ms returns "O.K."
T5204 000:367.129 JLINK_GetEmuCaps()
T5204 000:367.162 - 0.027ms returns 0xB8EA5A33
T5204 000:367.194 JLINK_TIF_GetAvailable(...)
T5204 000:367.604 - 0.413ms 
T5204 000:367.672 JLINK_SetErrorOutHandler(...)
T5204 000:367.704 - 0.032ms 
T5204 000:367.787 JLINK_ExecCommand("ProjectFile = "C:\Users\s4018114\OneDrive - RMIT University\Year 4\Sem 1\Embedded-System-Design\Labs\Lab-03\Template\JLinkSettings.ini"", ...). 
T5204 000:393.830 - 26.055ms returns 0x00
T5204 000:393.892 JLINK_ExecCommand("Device = STM32F439IIHx", ...). 
T5204 000:395.246   Flash bank @ 0x90000000: SFL: Parsing sectorization info from ELF file
T5204 000:395.267     FlashDevice.SectorInfo[0]: .SectorSize = 0x00010000, .SectorStartAddr = 0x00000000
T5204 000:398.574   Device "STM32F439II" selected.
T5204 000:400.623 - 6.721ms returns 0x00
T5204 000:400.648 JLINK_ExecCommand("DisableConnectionTimeout", ...). 
T5204 000:400.666   ERROR: Unknown command
T5204 000:400.676 - 0.020ms returns 0x01
T5204 000:400.684 JLINK_GetHardwareVersion()
T5204 000:400.691 - 0.006ms returns 10000
T5204 000:400.698 JLINK_GetDLLVersion()
T5204 000:400.704 - 0.006ms returns 81600
T5204 000:400.711 JLINK_GetOEMString(...)
T5204 000:400.718 JLINK_GetFirmwareString(...)
T5204 000:400.725 - 0.007ms 
T5204 000:400.770 JLINK_GetDLLVersion()
T5204 000:400.777 - 0.006ms returns 81600
T5204 000:400.784 JLINK_GetCompileDateTime()
T5204 000:400.790 - 0.006ms 
T5204 000:400.800 JLINK_GetFirmwareString(...)
T5204 000:400.806 - 0.006ms 
T5204 000:400.815 JLINK_GetHardwareVersion()
T5204 000:400.821 - 0.006ms returns 10000
T5204 000:400.831 JLINK_GetSN()
T5204 000:400.837 - 0.005ms returns 801015647
T5204 000:400.845 JLINK_GetOEMString(...)
T5204 000:400.866 JLINK_TIF_Select(JLINKARM_TIF_JTAG)
T5204 000:402.248 - 1.383ms returns 0x00
T5204 000:402.275 JLINK_HasError()
T5204 000:402.293 JLINK_SetSpeed(5000)
T5204 000:402.508 - 0.216ms 
T5204 000:402.518 JLINK_GetIdData(pIdData)
T5204 000:402.844   InitTarget() start
T5204 000:402.858    J-Link Script File: Executing InitTarget()
T5204 000:403.104   JTAG selected. Identifying JTAG Chain...
T5204 000:404.297   TotalIRLen = 9, IRPrint = 0x0011
T5204 000:404.737   JTAG chain detection found 2 devices:
T5204 000:404.750    #0 Id: 0x4BA00477, IRLen: 04, CoreSight JTAG-DP
T5204 000:404.762    #1 Id: 0x06419041, IRLen: 05, STM32 Boundary Scan
T5204 000:404.773   JTAG Chain Identified. Connecting to DAP TAP...
T5204 000:404.785   Successfully connected to selected DAP TAP.
T5204 000:406.479   DAP initialized successfully.
T5204 000:412.465   InitTarget() end - Took 9.59ms
T5204 000:413.689   TotalIRLen = 9, IRPrint = 0x0011
T5204 000:414.180   JTAG chain detection found 2 devices:
T5204 000:414.192    #0 Id: 0x4BA00477, IRLen: 04, CoreSight JTAG-DP
T5204 000:414.203    #1 Id: 0x06419041, IRLen: 05, STM32 Boundary Scan
T5204 000:415.757   DPv0 detected
T5204 000:415.793   Scanning AP map to find all available APs
T5204 000:416.502   AP[1]: Stopped AP scan as end of AP map has been reached
T5204 000:416.526   AP[0]: AHB-AP (IDR: 0x24770011, ADDR: 0x00000000)
T5204 000:416.538   Iterating through AP map to find AHB-AP to use
T5204 000:417.433   AP[0]: Core found
T5204 000:417.448   AP[0]: AHB-AP ROM base: 0xE00FF000
T5204 000:417.953   CPUID register: 0x410FC241. Implementer code: 0x41 (ARM)
T5204 000:417.978   Found Cortex-M4 r0p1, Little endian.
T5204 000:418.285   -- Max. mem block: 0x00002AF0
T5204 000:419.822   CPU_ReadMem(4 bytes @ 0xE000EDF0)
T5204 000:420.226   CPU_ReadMem(4 bytes @ 0xE0002000)
T5204 000:420.666   FPUnit: 6 code (BP) slots and 2 literal slots
T5204 000:420.676   CPU_ReadMem(4 bytes @ 0xE000EDFC)
T5204 000:421.139   CPU_WriteMem(4 bytes @ 0xE000EDFC)
T5204 000:421.485   CPU_ReadMem(4 bytes @ 0xE0001000)
T5204 000:421.973   CPU_WriteMem(4 bytes @ 0xE0001000)
T5204 000:422.305   CPU_ReadMem(4 bytes @ 0xE000ED88)
T5204 000:422.734   CPU_WriteMem(4 bytes @ 0xE000ED88)
T5204 000:423.077   CPU_ReadMem(4 bytes @ 0xE000ED88)
T5204 000:423.475   CPU_WriteMem(4 bytes @ 0xE000ED88)
T5204 000:423.827   CoreSight components:
T5204 000:423.840   ROMTbl[0] @ E00FF000
T5204 000:423.849   CPU_ReadMem(64 bytes @ 0xE00FF000)
T5204 000:424.633   CPU_ReadMem(32 bytes @ 0xE000EFE0)
T5204 000:425.249   [0][0]: E000E000 CID B105E00D PID 000BB00C SCS-M7
T5204 000:425.261   CPU_ReadMem(32 bytes @ 0xE0001FE0)
T5204 000:425.854   [0][1]: E0001000 CID B105E00D PID 003BB002 DWT
T5204 000:425.865   CPU_ReadMem(32 bytes @ 0xE0002FE0)
T5204 000:426.470   [0][2]: E0002000 CID B105E00D PID 002BB003 FPB
T5204 000:426.480   CPU_ReadMem(32 bytes @ 0xE0000FE0)
T5204 000:427.071   [0][3]: E0000000 CID B105E00D PID 003BB001 ITM
T5204 000:427.081   CPU_ReadMem(32 bytes @ 0xE0040FE0)
T5204 000:427.689   [0][4]: E0040000 CID B105900D PID 000BB9A1 TPIU
T5204 000:427.700   CPU_ReadMem(32 bytes @ 0xE0041FE0)
T5204 000:428.255   [0][5]: E0041000 CID B105900D PID 000BB925 ETM
T5204 000:428.294   pIdData->ScanLen=9
T5204 000:428.304   pIdData->NumDevices=2
T5204 000:428.313   pIdData->aId[0]=0x4BA00477
T5204 000:428.322   pIdData->aIrRead[0]=0
T5204 000:428.330   pIdData->aScanLen[0]=0
T5204 000:428.339   pIdData->aScanRead[0]=0
T5204 000:428.348 - 25.830ms 
T5204 000:428.363 JLINK_JTAG_GetDeviceID(DeviceIndex = 0)
T5204 000:428.370 - 0.007ms returns 1268778103
T5204 000:428.377 JLINK_JTAG_GetDeviceInfo(DeviceIndex = 0)
T5204 000:428.383 - 0.006ms returns 0
T5204 000:428.390 JLINK_JTAG_GetDeviceID(DeviceIndex = 1)
T5204 000:428.396 - 0.006ms returns 104960065
T5204 000:428.402 JLINK_JTAG_GetDeviceInfo(DeviceIndex = 1)
T5204 000:428.408 - 0.006ms returns 0
T5204 000:428.417 JLINK_GetDLLVersion()
T5204 000:428.423 - 0.006ms returns 81600
T5204 000:428.433 JLINK_CORE_GetFound()
T5204 000:428.442 - 0.008ms returns 0xE0000FF
T5204 000:428.449 JLINK_GetDebugInfo(0x100 = JLINKARM_ROM_TABLE_ADDR_INDEX)
T5204 000:428.457   Value=0xE00FF000
T5204 000:428.466 - 0.017ms returns 0
T5204 000:428.479 JLINK_GetDebugInfo(0x100 = JLINKARM_ROM_TABLE_ADDR_INDEX)
T5204 000:428.486   Value=0xE00FF000
T5204 000:428.495 - 0.015ms returns 0
T5204 000:428.502 JLINK_GetDebugInfo(0x101 = JLINKARM_DEBUG_INFO_ETM_ADDR_INDEX)
T5204 000:428.508   Value=0xE0041000
T5204 000:428.517 - 0.015ms returns 0
T5204 000:428.561 JLINK_ReadMemEx(0xE0041FD0, 0x20 Bytes, Flags = 0x02000004)
T5204 000:428.587   CPU_ReadMem(32 bytes @ 0xE0041FD0)
T5204 000:429.211   Data:  04 00 00 00 00 00 00 00 00 00 00 00 00 00 00 00 ...
T5204 000:429.223 - 0.662ms returns 32 (0x20)
T5204 000:429.231 JLINK_GetDebugInfo(0x102 = JLINKARM_DEBUG_INFO_MTB_ADDR_INDEX)
T5204 000:429.237   Value=0x00000000
T5204 000:429.246 - 0.014ms returns 0
T5204 000:429.253 JLINK_GetDebugInfo(0x103 = JLINKARM_DEBUG_INFO_TPIU_ADDR_INDEX)
T5204 000:429.259   Value=0xE0040000
T5204 000:429.267 - 0.015ms returns 0
T5204 000:429.274 JLINK_GetDebugInfo(0x104 = JLINKARM_DEBUG_INFO_ITM_ADDR_INDEX)
T5204 000:429.284   Value=0xE0000000
T5204 000:429.293 - 0.019ms returns 0
T5204 000:429.300 JLINK_GetDebugInfo(0x105 = JLINKARM_DEBUG_INFO_DWT_ADDR_INDEX)
T5204 000:429.306   Value=0xE0001000
T5204 000:429.315 - 0.015ms returns 0
T5204 000:429.322 JLINK_GetDebugInfo(0x106 = JLINKARM_DEBUG_INFO_FPB_ADDR_INDEX)
T5204 000:429.328   Value=0xE0002000
T5204 000:429.337 - 0.015ms returns 0
T5204 000:429.344 JLINK_GetDebugInfo(0x107 = JLINKARM_DEBUG_INFO_NVIC_ADDR_INDEX)
T5204 000:429.349   Value=0xE000E000
T5204 000:429.358 - 0.014ms returns 0
T5204 000:429.366 JLINK_GetDebugInfo(0x10C = JLINKARM_DEBUG_INFO_DBG_ADDR_INDEX)
T5204 000:429.372   Value=0xE000EDF0
T5204 000:429.380 - 0.015ms returns 0
T5204 000:429.387 JLINK_GetDebugInfo(0x01 = Unknown)
T5204 000:429.393   Value=0x00000001
T5204 000:429.402 - 0.015ms returns 0
T5204 000:429.410 JLINK_ReadMemU32(0xE000ED00, 0x1 Items)
T5204 000:429.418   CPU_ReadMem(4 bytes @ 0xE000ED00)
T5204 000:429.814   Data:  41 C2 0F 41
T5204 000:429.824   Debug reg: CPUID
T5204 000:429.833 - 0.422ms returns 1 (0x1)
T5204 000:429.840 JLINK_GetDebugInfo(0x10F = JLINKARM_DEBUG_INFO_HAS_CORTEX_M_SECURITY_EXT_INDEX)
T5204 000:429.846   Value=0x00000000
T5204 000:429.855 - 0.015ms returns 0
T5204 000:429.862 JLINK_HasError()
T5204 000:429.870 JLINK_SetResetType(JLINKARM_CM3_RESET_TYPE_NORMAL)
T5204 000:429.876 - 0.006ms returns JLINKARM_CM3_RESET_TYPE_NORMAL
T5204 000:429.882 JLINK_Reset()
T5204 000:429.891   JLINK_GetResetTypeDesc
T5204 000:429.897   - 0.006ms 
T5204 000:429.914   Reset type: NORMAL (https://wiki.segger.com/J-Link_Reset_Strategies)
T5204 000:429.924   CPU is running
T5204 000:429.936   CPU_WriteMem(4 bytes @ 0xE000EDF0)
T5204 000:430.301   CPU is running
T5204 000:430.314   CPU_WriteMem(4 bytes @ 0xE000EDFC)
T5204 000:430.677   Reset: Halt core after reset via DEMCR.VC_CORERESET.
T5204 000:430.699   Reset: Reset device via AIRCR.SYSRESETREQ.
T5204 000:430.708   CPU is running
T5204 000:430.718   CPU_WriteMem(4 bytes @ 0xE000ED0C)
T5204 000:484.046   CPU_ReadMem(4 bytes @ 0xE000EDF0)
T5204 000:484.752   CPU_ReadMem(4 bytes @ 0xE000EDF0)
T5204 000:488.586   CPU_WriteMem(4 bytes @ 0xE000EDFC)
T5204 000:494.963   CPU_ReadMem(4 bytes @ 0xE000EDF0)
T5204 000:498.378   CPU_WriteMem(4 bytes @ 0xE000EDFC)
T5204 000:498.848   CPU_WriteMem(4 bytes @ 0xE0001028)
T5204 000:499.228   CPU_WriteMem(4 bytes @ 0xE0001038)
T5204 000:499.610   CPU_WriteMem(4 bytes @ 0xE0001048)
T5204 000:500.104   CPU_WriteMem(4 bytes @ 0xE0001058)
T5204 000:500.489   CPU_WriteMem(4 bytes @ 0xE0002000)
T5204 000:500.870   CPU_ReadMem(4 bytes @ 0xE000EDFC)
T5204 000:501.277   CPU_ReadMem(4 bytes @ 0xE0001000)
T5204 000:501.740 - 71.856ms 
T5204 000:501.800 JLINK_HasError()
T5204 000:501.907 JLINK_ReadReg(R15 (PC))
T5204 000:501.935 - 0.048ms returns 0x08000008
T5204 000:501.960 JLINK_ReadReg(XPSR)
T5204 000:501.982 - 0.022ms returns 0x01000000
T5204 000:502.007 JLINK_Halt()
T5204 000:502.028 - 0.021ms returns 0x00
T5204 000:502.054 JLINK_ReadMemU32(0xE000EDF0, 0x1 Items)
T5204 000:502.084   CPU_ReadMem(4 bytes @ 0xE000EDF0)
T5204 000:502.562   Data:  03 00 03 00
T5204 000:502.598   Debug reg: DHCSR
T5204 000:502.630 - 0.577ms returns 1 (0x1)
T5204 000:502.658 JLINK_WriteU32(0xE000EDF0, 0xA05F0003)
T5204 000:502.681   Debug reg: DHCSR
T5204 000:503.357   CPU_WriteMem(4 bytes @ 0xE000EDF0)
T5204 000:503.828 - 1.169ms returns 0 (0x00000000)
T5204 000:503.859 JLINK_WriteU32(0xE000EDFC, 0x01000000)
T5204 000:503.881   Debug reg: DEMCR
T5204 000:503.919   CPU_WriteMem(4 bytes @ 0xE000EDFC)
T5204 000:504.344 - 0.485ms returns 0 (0x00000000)
T5204 000:504.425 JLINK_GetHWStatus(...)
T5204 000:504.674 - 0.249ms returns 0
T5204 000:504.753 JLINK_GetNumBPUnits(Type = 0xFFFFFF00)
T5204 000:504.778 - 0.026ms returns 0x06
T5204 000:504.804 JLINK_GetNumBPUnits(Type = 0xF0)
T5204 000:504.828 - 0.024ms returns 0x2000
T5204 000:504.853 JLINK_GetNumWPUnits()
T5204 000:504.876 - 0.023ms returns 4
T5204 000:504.930 JLINK_GetSpeed()
T5204 000:504.958 - 0.028ms returns 4000
T5204 000:504.997 JLINK_ReadMemU32(0xE000E004, 0x1 Items)
T5204 000:505.026   CPU_ReadMem(4 bytes @ 0xE000E004)
T5204 000:505.522   Data:  02 00 00 00
T5204 000:505.569 - 0.572ms returns 1 (0x1)
T5204 000:505.598 JLINK_ReadMemU32(0xE000E004, 0x1 Items)
T5204 000:505.627   CPU_ReadMem(4 bytes @ 0xE000E004)
T5204 000:506.127   Data:  02 00 00 00
T5204 000:506.159 - 0.561ms returns 1 (0x1)
T5204 000:506.185 JLINK_WriteMemEx(0xE0001000, 0x0000001C Bytes, Flags = 0x02000004)
T5204 000:506.207   Data:  01 00 00 00 00 00 00 00 00 00 00 00 00 00 00 00 ...
T5204 000:506.246   CPU_WriteMem(28 bytes @ 0xE0001000)
T5204 000:506.823 - 0.638ms returns 0x1C
T5204 000:506.849 JLINK_HasError()
T5204 000:506.871 JLINK_ReadReg(R15 (PC))
T5204 000:506.892 - 0.020ms returns 0x08000008
T5204 000:506.913 JLINK_ReadReg(XPSR)
T5204 000:506.932 - 0.019ms returns 0x01000000
T5204 000:511.612 JLINK_ReadMemEx(0xE0001004, 0x4 Bytes, Flags = 0x02000000)
T5204 000:511.646   Data:  00 00 00 00
T5204 000:511.660   Debug reg: DWT_CYCCNT
T5204 000:511.673 - 0.060ms returns 4 (0x4)
T5204 000:515.269 JLINK_WriteMemEx(0x20000000, 0x00001000 Bytes, Flags = 0x02000000)
T5204 000:515.292   Data:  20 04 01 20 29 0D 00 20 C1 01 00 20 33 0D 00 20 ...
T5204 000:515.556   CPU_WriteMem(4096 bytes @ 0x20000000)
T5204 000:533.092 - 17.822ms returns 0x1000
T5204 000:533.760 JLINK_WriteMemEx(0x20001000, 0x00000700 Bytes, Flags = 0x02000000)
T5204 000:533.791   Data:  AA 22 C8 F2 0A 02 1A 60 41 F6 04 02 C4 F2 02 02 ...
T5204 000:533.831   CPU_WriteMem(1792 bytes @ 0x20001000)
T5204 000:542.017 - 8.255ms returns 0x700
T5204 000:600.824 JLINK_HasError()
T5204 000:600.854 JLINK_SetResetType(JLINKARM_CM3_RESET_TYPE_NORMAL)
T5204 000:600.862 - 0.007ms returns JLINKARM_CM3_RESET_TYPE_NORMAL
T5204 000:600.869 JLINK_Reset()
T5204 000:600.882   JLINK_GetResetTypeDesc
T5204 000:600.888   - 0.006ms 
T5204 000:600.906   Reset type: NORMAL (https://wiki.segger.com/J-Link_Reset_Strategies)
T5204 000:600.916   CPU_WriteMem(4 bytes @ 0xE000EDF0)
T5204 000:601.436   CPU_WriteMem(4 bytes @ 0xE000EDFC)
T5204 000:601.863   Reset: Halt core after reset via DEMCR.VC_CORERESET.
T5204 000:601.890   Reset: Reset device via AIRCR.SYSRESETREQ.
T5204 000:601.901   CPU_WriteMem(4 bytes @ 0xE000ED0C)
T5204 000:653.983   CPU_ReadMem(4 bytes @ 0xE000EDF0)
T5204 000:654.562   CPU_ReadMem(4 bytes @ 0xE000EDF0)
T5204 000:655.040   CPU_WriteMem(4 bytes @ 0xE000EDFC)
T5204 000:661.095   CPU_ReadMem(4 bytes @ 0xE000EDF0)
T5204 000:664.418   CPU_WriteMem(4 bytes @ 0xE000EDFC)
T5204 000:664.950   CPU_WriteMem(4 bytes @ 0xE0001028)
T5204 000:665.461   CPU_WriteMem(4 bytes @ 0xE0001038)
T5204 000:665.876   CPU_WriteMem(4 bytes @ 0xE0001048)
T5204 000:666.338   CPU_WriteMem(4 bytes @ 0xE0001058)
T5204 000:666.719   CPU_WriteMem(4 bytes @ 0xE0002000)
T5204 000:667.083   CPU_ReadMem(4 bytes @ 0xE000EDFC)
T5204 000:667.507   CPU_ReadMem(4 bytes @ 0xE0001000)
T5204 000:667.933 - 67.064ms 
T5204 000:667.993 JLINK_HasError()
T5204 000:668.004 JLINK_ReadReg(R15 (PC))
T5204 000:668.016 - 0.011ms returns 0x08000008
T5204 000:668.025 JLINK_ReadReg(XPSR)
T5204 000:668.034 - 0.009ms returns 0x01000000
T5204 000:668.130 JLINK_ReadMemEx(0x08000008, 0x3C Bytes, Flags = 0x02000000)
T5204 000:668.146   CPU_ReadMem(128 bytes @ 0x08000000)
T5204 000:669.410    -- Updating C cache (128 bytes @ 0x08000000)
T5204 000:669.442    -- Read from C cache (60 bytes @ 0x08000008)
T5204 000:669.471   Data:  00 BF 4B 49 08 68 40 F0 23 00 08 60 49 49 08 68 ...
T5204 000:669.497 - 1.366ms returns 60 (0x3C)
T5204 000:669.519 JLINK_ReadMemEx(0x08000008, 0x2 Bytes, Flags = 0x02000000)
T5204 000:669.539    -- Read from C cache (2 bytes @ 0x08000008)
T5204 000:669.564   Data:  00 BF
T5204 000:669.590 - 0.070ms returns 2 (0x2)
T5204 000:669.729 JLINK_ReadMemEx(0x0800000A, 0x2 Bytes, Flags = 0x02000000)
T5204 000:669.748    -- Read from C cache (2 bytes @ 0x0800000A)
T5204 000:669.774   Data:  4B 49
T5204 000:669.883 - 0.154ms returns 2 (0x2)
T5204 000:670.355 JLINK_ReadMemEx(0x0800000A, 0x2 Bytes, Flags = 0x02000000)
T5204 000:670.377    -- Read from C cache (2 bytes @ 0x0800000A)
T5204 000:670.401   Data:  4B 49
T5204 000:670.425 - 0.070ms returns 2 (0x2)
T5204 000:670.444 JLINK_ReadMemEx(0x0800000C, 0x3C Bytes, Flags = 0x02000000)
T5204 000:670.461    -- Read from C cache (60 bytes @ 0x0800000C)
T5204 000:670.486   Data:  08 68 40 F0 23 00 08 60 49 49 08 68 40 F0 23 00 ...
T5204 000:670.510 - 0.066ms returns 60 (0x3C)
T5204 000:670.528 JLINK_ReadMemEx(0x0800000C, 0x2 Bytes, Flags = 0x02000000)
T5204 000:670.545    -- Read from C cache (2 bytes @ 0x0800000C)
T5204 000:670.568   Data:  08 68
T5204 000:670.594 - 0.066ms returns 2 (0x2)
T5204 000:670.617 JLINK_ReadMemEx(0x0800000C, 0x3C Bytes, Flags = 0x02000000)
T5204 000:670.632    -- Read from C cache (60 bytes @ 0x0800000C)
T5204 000:670.655   Data:  08 68 40 F0 23 00 08 60 49 49 08 68 40 F0 23 00 ...
T5204 000:670.677 - 0.061ms returns 60 (0x3C)
T5204 000:670.694 JLINK_ReadMemEx(0x0800000C, 0x2 Bytes, Flags = 0x02000000)
T5204 000:670.709    -- Read from C cache (2 bytes @ 0x0800000C)
T5204 000:670.730   Data:  08 68
T5204 000:670.752 - 0.058ms returns 2 (0x2)
T5204 000:670.769 JLINK_ReadMemEx(0x0800000E, 0x2 Bytes, Flags = 0x02000000)
T5204 000:670.784    -- Read from C cache (2 bytes @ 0x0800000E)
T5204 000:670.805   Data:  40 F0
T5204 000:670.827 - 0.058ms returns 2 (0x2)
T5204 000:670.847 JLINK_ReadMemEx(0x0800000E, 0x2 Bytes, Flags = 0x02000000)
T5204 000:670.862    -- Read from C cache (2 bytes @ 0x0800000E)
T5204 000:670.883   Data:  40 F0
T5204 000:670.905 - 0.058ms returns 2 (0x2)
T5204 000:670.921 JLINK_ReadMemEx(0x08000010, 0x3C Bytes, Flags = 0x02000000)
T5204 000:670.936    -- Read from C cache (60 bytes @ 0x08000010)
T5204 000:670.958   Data:  23 00 08 60 49 49 08 68 40 F0 23 00 08 60 00 BF ...
T5204 000:670.980 - 0.059ms returns 60 (0x3C)
T5204 000:670.996 JLINK_ReadMemEx(0x08000010, 0x2 Bytes, Flags = 0x02000000)
T5204 000:671.011    -- Read from C cache (2 bytes @ 0x08000010)
T5204 000:671.032   Data:  23 00
T5204 000:671.054 - 0.058ms returns 2 (0x2)
T5204 000:671.098 JLINK_ReadMemEx(0x08000012, 0x2 Bytes, Flags = 0x02000000)
T5204 000:671.132    -- Read from C cache (2 bytes @ 0x08000012)
T5204 000:671.154   Data:  08 60
T5204 000:671.176 - 0.078ms returns 2 (0x2)
T5204 000:671.192 JLINK_ReadMemEx(0x08000014, 0x3C Bytes, Flags = 0x02000000)
T5204 000:671.208    -- Read from C cache (60 bytes @ 0x08000014)
T5204 000:671.230   Data:  49 49 08 68 40 F0 23 00 08 60 00 BF 00 BF 20 F0 ...
T5204 000:671.251 - 0.059ms returns 60 (0x3C)
T5204 000:671.268 JLINK_ReadMemEx(0x08000014, 0x2 Bytes, Flags = 0x02000000)
T5204 000:671.282    -- Read from C cache (2 bytes @ 0x08000014)
T5204 000:671.301   Data:  49 49
T5204 000:671.320 - 0.051ms returns 2 (0x2)
T5204 000:700.147 JLINK_ReadMemEx(0x40023800, 0x18 Bytes, Flags = 0x02000004)
T5204 000:700.189   CPU_ReadMem(24 bytes @ 0x40023800)
T5204 000:700.838   Data:  83 81 00 00 10 30 00 24 00 00 00 00 00 00 00 00 ...
T5204 000:700.866 - 0.719ms returns 24 (0x18)
T5204 000:700.885 JLINK_ReadMemEx(0x40023818, 0x4 Bytes, Flags = 0x02000004)
T5204 000:700.899   CPU_ReadMem(4 bytes @ 0x40023818)
T5204 000:701.356   Data:  00 00 00 00
T5204 000:701.367 - 0.481ms returns 4 (0x4)
T5204 000:701.375 JLINK_ReadMemEx(0x40023820, 0x4 Bytes, Flags = 0x02000004)
T5204 000:701.404   CPU_ReadMem(4 bytes @ 0x40023820)
T5204 000:701.802   Data:  00 00 00 00
T5204 000:701.813 - 0.437ms returns 4 (0x4)
T5204 000:701.821 JLINK_ReadMemEx(0x40023824, 0x4 Bytes, Flags = 0x02000004)
T5204 000:701.829   CPU_ReadMem(4 bytes @ 0x40023824)
T5204 000:702.226   Data:  00 00 00 00
T5204 000:702.237 - 0.415ms returns 4 (0x4)
T5204 000:702.259 JLINK_ReadMemEx(0x40023830, 0x8 Bytes, Flags = 0x02000004)
T5204 000:702.267   CPU_ReadMem(8 bytes @ 0x40023830)
T5204 000:702.729   Data:  00 00 10 00 00 00 00 00
T5204 000:702.739 - 0.480ms returns 8 (0x8)
T5204 000:702.747 JLINK_ReadMemEx(0x40023838, 0x4 Bytes, Flags = 0x02000004)
T5204 000:702.759   CPU_ReadMem(4 bytes @ 0x40023838)
T5204 000:703.106   Data:  00 00 00 00
T5204 000:703.117 - 0.370ms returns 4 (0x4)
T5204 000:703.125 JLINK_ReadMemEx(0x40023840, 0x4 Bytes, Flags = 0x02000004)
T5204 000:703.133   CPU_ReadMem(4 bytes @ 0x40023840)
T5204 000:703.531   Data:  00 00 00 00
T5204 000:703.542 - 0.416ms returns 4 (0x4)
T5204 000:703.550 JLINK_ReadMemEx(0x40023844, 0x4 Bytes, Flags = 0x02000004)
T5204 000:703.557   CPU_ReadMem(4 bytes @ 0x40023844)
T5204 000:703.989   Data:  00 00 00 00
T5204 000:704.000 - 0.449ms returns 4 (0x4)
T5204 000:704.008 JLINK_ReadMemEx(0x40023850, 0x8 Bytes, Flags = 0x02000004)
T5204 000:704.015   CPU_ReadMem(8 bytes @ 0x40023850)
T5204 000:704.419   Data:  FF 97 EF 7E F1 00 00 00
T5204 000:704.458 - 0.450ms returns 8 (0x8)
T5204 000:704.466 JLINK_ReadMemEx(0x40023858, 0x4 Bytes, Flags = 0x02000004)
T5204 000:704.473   CPU_ReadMem(4 bytes @ 0x40023858)
T5204 000:704.957   Data:  01 00 00 00
T5204 000:704.967 - 0.501ms returns 4 (0x4)
T5204 000:704.975 JLINK_ReadMemEx(0x40023860, 0x4 Bytes, Flags = 0x02000004)
T5204 000:704.983   CPU_ReadMem(4 bytes @ 0x40023860)
T5204 000:705.494   Data:  FF C9 FE F6
T5204 000:705.510 - 0.535ms returns 4 (0x4)
T5204 000:705.521 JLINK_ReadMemEx(0x40023864, 0x4 Bytes, Flags = 0x02000004)
T5204 000:705.531   CPU_ReadMem(4 bytes @ 0x40023864)
T5204 000:705.956   Data:  33 7F 77 04
T5204 000:706.008 - 0.488ms returns 4 (0x4)
T5204 000:706.016 JLINK_ReadMemEx(0x40023870, 0x4 Bytes, Flags = 0x02000004)
T5204 000:706.024   CPU_ReadMem(4 bytes @ 0x40023870)
T5204 000:706.445   Data:  00 00 00 00
T5204 000:706.456 - 0.439ms returns 4 (0x4)
T5204 000:706.492 JLINK_ReadMemEx(0x40023874, 0x4 Bytes, Flags = 0x02000004)
T5204 000:706.499   CPU_ReadMem(4 bytes @ 0x40023874)
T5204 000:706.971   Data:  00 00 00 1E
T5204 000:706.982 - 0.491ms returns 4 (0x4)
T5204 000:706.991 JLINK_ReadMemEx(0x40023880, 0x4 Bytes, Flags = 0x02000004)
T5204 000:706.998   CPU_ReadMem(4 bytes @ 0x40023880)
T5204 000:707.391   Data:  00 00 00 00
T5204 000:707.433 - 0.442ms returns 4 (0x4)
T5204 000:707.441 JLINK_ReadMemEx(0x40023884, 0x4 Bytes, Flags = 0x02000004)
T5204 000:707.448   CPU_ReadMem(4 bytes @ 0x40023884)
T5204 000:707.851   Data:  00 30 00 24
T5204 000:707.861 - 0.420ms returns 4 (0x4)
T5204 000:734.087 JLINK_ReadMemEx(0x40001000, 0x4 Bytes, Flags = 0x02000004)
T5204 000:734.127   CPU_ReadMem(4 bytes @ 0x40001000)
T5204 000:734.569   Data:  00 00 00 00
T5204 000:734.582 - 0.495ms returns 4 (0x4)
T5204 000:734.593 JLINK_ReadMemEx(0x40001004, 0x4 Bytes, Flags = 0x02000004)
T5204 000:734.602   CPU_ReadMem(4 bytes @ 0x40001004)
T5204 000:735.005   Data:  00 00 00 00
T5204 000:735.016 - 0.422ms returns 4 (0x4)
T5204 000:735.024 JLINK_ReadMemEx(0x4000100C, 0x4 Bytes, Flags = 0x02000004)
T5204 000:735.032   CPU_ReadMem(4 bytes @ 0x4000100C)
T5204 000:735.428   Data:  00 00 00 00
T5204 000:735.439 - 0.414ms returns 4 (0x4)
T5204 000:735.447 JLINK_ReadMemEx(0x40001010, 0x4 Bytes, Flags = 0x02000004)
T5204 000:735.454   CPU_ReadMem(4 bytes @ 0x40001010)
T5204 000:735.851   Data:  00 00 00 00
T5204 000:735.861 - 0.414ms returns 4 (0x4)
T5204 000:735.869 JLINK_ReadMemEx(0x40001024, 0x8 Bytes, Flags = 0x02000004)
T5204 000:735.883   CPU_ReadMem(8 bytes @ 0x40001024)
T5204 000:736.320   Data:  00 00 00 00 00 00 00 00
T5204 000:736.347 - 0.477ms returns 8 (0x8)
T5204 000:736.374 JLINK_ReadMemEx(0x4000102C, 0x4 Bytes, Flags = 0x02000004)
T5204 000:736.381   CPU_ReadMem(4 bytes @ 0x4000102C)
T5204 000:736.775   Data:  00 00 00 00
T5204 000:736.786 - 0.412ms returns 4 (0x4)
T5204 000:759.488 JLINK_ReadMemEx(0x40004800, 0x18 Bytes, Flags = 0x02000004)
T5204 000:759.524   CPU_ReadMem(24 bytes @ 0x40004800)
T5204 000:760.158   Data:  00 00 00 00 00 00 00 00 00 00 00 00 00 00 00 00 ...
T5204 000:760.170 - 0.683ms returns 24 (0x18)
T5204 000:760.182 JLINK_ReadMemEx(0x40004818, 0x4 Bytes, Flags = 0x02000004)
T5204 000:760.190   CPU_ReadMem(4 bytes @ 0x40004818)
T5204 000:760.576   Data:  00 00 00 00
T5204 000:760.587 - 0.405ms returns 4 (0x4)
T5204 001:407.177 JLINK_ReadMemEx(0x08000008, 0x3C Bytes, Flags = 0x02000000)
T5204 001:407.211    -- Read from C cache (60 bytes @ 0x08000008)
T5204 001:407.222   Data:  00 BF 4B 49 08 68 40 F0 23 00 08 60 49 49 08 68 ...
T5204 001:407.233 - 0.056ms returns 60 (0x3C)
T5204 001:407.241 JLINK_ReadMemEx(0x08000008, 0x2 Bytes, Flags = 0x02000000)
T5204 001:407.248    -- Read from C cache (2 bytes @ 0x08000008)
T5204 001:407.257   Data:  00 BF
T5204 001:407.267 - 0.026ms returns 2 (0x2)
T5204 001:407.275 JLINK_ReadMemEx(0x0800000A, 0x2 Bytes, Flags = 0x02000000)
T5204 001:407.282    -- Read from C cache (2 bytes @ 0x0800000A)
T5204 001:407.291   Data:  4B 49
T5204 001:407.300 - 0.025ms returns 2 (0x2)
T5204 001:407.316 JLINK_ReadMemEx(0x0800000A, 0x2 Bytes, Flags = 0x02000000)
T5204 001:407.323    -- Read from C cache (2 bytes @ 0x0800000A)
T5204 001:407.332   Data:  4B 49
T5204 001:407.341 - 0.025ms returns 2 (0x2)
T5204 001:407.348 JLINK_ReadMemEx(0x0800000C, 0x3C Bytes, Flags = 0x02000000)
T5204 001:407.354    -- Read from C cache (60 bytes @ 0x0800000C)
T5204 001:407.364   Data:  08 68 40 F0 23 00 08 60 49 49 08 68 40 F0 23 00 ...
T5204 001:407.373 - 0.025ms returns 60 (0x3C)
T5204 001:407.380 JLINK_ReadMemEx(0x0800000C, 0x2 Bytes, Flags = 0x02000000)
T5204 001:407.387    -- Read from C cache (2 bytes @ 0x0800000C)
T5204 001:407.395   Data:  08 68
T5204 001:407.405 - 0.024ms returns 2 (0x2)
T5204 001:407.414 JLINK_ReadMemEx(0x0800000C, 0x3C Bytes, Flags = 0x02000000)
T5204 001:407.421    -- Read from C cache (60 bytes @ 0x0800000C)
T5204 001:407.431   Data:  08 68 40 F0 23 00 08 60 49 49 08 68 40 F0 23 00 ...
T5204 001:407.439 - 0.025ms returns 60 (0x3C)
T5204 001:407.446 JLINK_ReadMemEx(0x0800000C, 0x2 Bytes, Flags = 0x02000000)
T5204 001:407.453    -- Read from C cache (2 bytes @ 0x0800000C)
T5204 001:407.461   Data:  08 68
T5204 001:407.470 - 0.024ms returns 2 (0x2)
T5204 001:407.477 JLINK_ReadMemEx(0x0800000E, 0x2 Bytes, Flags = 0x02000000)
T5204 001:407.483    -- Read from C cache (2 bytes @ 0x0800000E)
T5204 001:407.492   Data:  40 F0
T5204 001:407.501 - 0.024ms returns 2 (0x2)
T5204 001:407.510 JLINK_ReadMemEx(0x0800000E, 0x2 Bytes, Flags = 0x02000000)
T5204 001:407.517    -- Read from C cache (2 bytes @ 0x0800000E)
T5204 001:407.526   Data:  40 F0
T5204 001:407.535 - 0.024ms returns 2 (0x2)
T5204 001:407.542 JLINK_ReadMemEx(0x08000010, 0x3C Bytes, Flags = 0x02000000)
T5204 001:407.548    -- Read from C cache (60 bytes @ 0x08000010)
T5204 001:407.558   Data:  23 00 08 60 49 49 08 68 40 F0 23 00 08 60 00 BF ...
T5204 001:407.567 - 0.025ms returns 60 (0x3C)
T5204 001:407.574 JLINK_ReadMemEx(0x08000010, 0x2 Bytes, Flags = 0x02000000)
T5204 001:407.581    -- Read from C cache (2 bytes @ 0x08000010)
T5204 001:407.590   Data:  23 00
T5204 001:407.599 - 0.025ms returns 2 (0x2)
T5204 001:407.608 JLINK_ReadMemEx(0x08000012, 0x2 Bytes, Flags = 0x02000000)
T5204 001:407.614    -- Read from C cache (2 bytes @ 0x08000012)
T5204 001:407.623   Data:  08 60
T5204 001:407.633 - 0.024ms returns 2 (0x2)
T5204 001:407.640 JLINK_ReadMemEx(0x08000014, 0x3C Bytes, Flags = 0x02000000)
T5204 001:407.646    -- Read from C cache (60 bytes @ 0x08000014)
T5204 001:407.656   Data:  49 49 08 68 40 F0 23 00 08 60 00 BF 00 BF 20 F0 ...
T5204 001:407.665 - 0.025ms returns 60 (0x3C)
T5204 001:407.672 JLINK_ReadMemEx(0x08000014, 0x2 Bytes, Flags = 0x02000000)
T5204 001:407.678    -- Read from C cache (2 bytes @ 0x08000014)
T5204 001:407.687   Data:  49 49
T5204 001:407.696 - 0.024ms returns 2 (0x2)
T5204 001:407.705 JLINK_ReadMemEx(0x08000014, 0x3C Bytes, Flags = 0x02000000)
T5204 001:407.712    -- Read from C cache (60 bytes @ 0x08000014)
T5204 001:407.721   Data:  49 49 08 68 40 F0 23 00 08 60 00 BF 00 BF 20 F0 ...
T5204 001:407.730 - 0.025ms returns 60 (0x3C)
T5204 001:407.737 JLINK_ReadMemEx(0x08000014, 0x2 Bytes, Flags = 0x02000000)
T5204 001:407.743    -- Read from C cache (2 bytes @ 0x08000014)
T5204 001:407.759   Data:  49 49
T5204 001:407.768 - 0.031ms returns 2 (0x2)
T5204 001:407.775 JLINK_ReadMemEx(0x08000016, 0x2 Bytes, Flags = 0x02000000)
T5204 001:407.781    -- Read from C cache (2 bytes @ 0x08000016)
T5204 001:407.790   Data:  08 68
T5204 001:407.799 - 0.024ms returns 2 (0x2)
T5204 001:407.808 JLINK_ReadMemEx(0x08000016, 0x2 Bytes, Flags = 0x02000000)
T5204 001:407.814    -- Read from C cache (2 bytes @ 0x08000016)
T5204 001:407.823   Data:  08 68
T5204 001:407.832 - 0.024ms returns 2 (0x2)
T5204 001:407.840 JLINK_ReadMemEx(0x08000018, 0x3C Bytes, Flags = 0x02000000)
T5204 001:407.846    -- Read from C cache (60 bytes @ 0x08000018)
T5204 001:407.856   Data:  40 F0 23 00 08 60 00 BF 00 BF 20 F0 23 00 08 60 ...
T5204 001:407.864 - 0.024ms returns 60 (0x3C)
T5204 001:407.871 JLINK_ReadMemEx(0x08000018, 0x2 Bytes, Flags = 0x02000000)
T5204 001:407.877    -- Read from C cache (2 bytes @ 0x08000018)
T5204 001:407.886   Data:  40 F0
T5204 001:407.895 - 0.023ms returns 2 (0x2)
T5204 001:509.370 JLINK_HasError()
T5204 001:509.397 JLINK_ReadReg(R0)
T5204 001:509.805 - 0.407ms returns 0x00000000
T5204 001:509.816 JLINK_ReadReg(R1)
T5204 001:509.823 - 0.006ms returns 0x00000000
T5204 001:509.830 JLINK_ReadReg(R2)
T5204 001:509.836 - 0.006ms returns 0x00000000
T5204 001:509.843 JLINK_ReadReg(R3)
T5204 001:509.849 - 0.006ms returns 0x00000000
T5204 001:509.856 JLINK_ReadReg(R4)
T5204 001:509.862 - 0.006ms returns 0x00000000
T5204 001:509.869 JLINK_ReadReg(R5)
T5204 001:509.875 - 0.006ms returns 0x00000000
T5204 001:509.882 JLINK_ReadReg(R6)
T5204 001:509.889 - 0.006ms returns 0x00000000
T5204 001:509.896 JLINK_ReadReg(R7)
T5204 001:509.903 - 0.006ms returns 0x00000000
T5204 001:509.916 JLINK_ReadReg(R8)
T5204 001:509.923 - 0.013ms returns 0x00000000
T5204 001:509.930 JLINK_ReadReg(R9)
T5204 001:509.936 - 0.006ms returns 0x00000000
T5204 001:509.943 JLINK_ReadReg(R10)
T5204 001:509.949 - 0.006ms returns 0x00000000
T5204 001:509.956 JLINK_ReadReg(R11)
T5204 001:509.962 - 0.006ms returns 0x00000000
T5204 001:509.969 JLINK_ReadReg(R12)
T5204 001:509.976 - 0.006ms returns 0x00000000
T5204 001:509.982 JLINK_ReadReg(R13 (SP))
T5204 001:509.989 - 0.006ms returns 0x20010000
T5204 001:509.995 JLINK_ReadReg(R14)
T5204 001:510.001 - 0.006ms returns 0xFFFFFFFF
T5204 001:510.008 JLINK_ReadReg(R15 (PC))
T5204 001:510.015 - 0.006ms returns 0x08000008
T5204 001:510.021 JLINK_ReadReg(XPSR)
T5204 001:510.028 - 0.006ms returns 0x01000000
T5204 001:510.034 JLINK_ReadReg(MSP)
T5204 001:510.040 - 0.006ms returns 0x20010000
T5204 001:510.047 JLINK_ReadReg(PSP)
T5204 001:510.054 - 0.006ms returns 0x00000000
T5204 001:510.060 JLINK_ReadReg(CFBP)
T5204 001:510.067 - 0.006ms returns 0x00000000
T5204 001:510.074 JLINK_ReadReg(FPSCR)
T5204 001:514.196 - 4.121ms returns 0x00000000
T5204 001:514.225 JLINK_ReadReg(FPS0)
T5204 001:514.234 - 0.009ms returns 0x00000000
T5204 001:514.240 JLINK_ReadReg(FPS1)
T5204 001:514.247 - 0.006ms returns 0x00000000
T5204 001:514.253 JLINK_ReadReg(FPS2)
T5204 001:514.259 - 0.006ms returns 0x00000000
T5204 001:514.266 JLINK_ReadReg(FPS3)
T5204 001:514.272 - 0.006ms returns 0x00000000
T5204 001:514.307 JLINK_ReadReg(FPS4)
T5204 001:514.315 - 0.007ms returns 0x00000000
T5204 001:514.322 JLINK_ReadReg(FPS5)
T5204 001:514.328 - 0.006ms returns 0x00000000
T5204 001:514.334 JLINK_ReadReg(FPS6)
T5204 001:514.340 - 0.005ms returns 0x00000000
T5204 001:514.347 JLINK_ReadReg(FPS7)
T5204 001:514.353 - 0.006ms returns 0x00000000
T5204 001:514.359 JLINK_ReadReg(FPS8)
T5204 001:514.365 - 0.006ms returns 0x00000000
T5204 001:514.372 JLINK_ReadReg(FPS9)
T5204 001:514.378 - 0.006ms returns 0x00000000
T5204 001:514.384 JLINK_ReadReg(FPS10)
T5204 001:514.390 - 0.006ms returns 0x00000000
T5204 001:514.397 JLINK_ReadReg(FPS11)
T5204 001:514.403 - 0.006ms returns 0x00000000
T5204 001:514.409 JLINK_ReadReg(FPS12)
T5204 001:514.416 - 0.006ms returns 0x00000000
T5204 001:514.422 JLINK_ReadReg(FPS13)
T5204 001:514.428 - 0.006ms returns 0x00000000
T5204 001:514.435 JLINK_ReadReg(FPS14)
T5204 001:514.482 - 0.046ms returns 0x00000000
T5204 001:514.488 JLINK_ReadReg(FPS15)
T5204 001:514.494 - 0.006ms returns 0x00000000
T5204 001:514.501 JLINK_ReadReg(FPS16)
T5204 001:514.507 - 0.006ms returns 0x00000000
T5204 001:514.513 JLINK_ReadReg(FPS17)
T5204 001:514.520 - 0.006ms returns 0x00000000
T5204 001:514.526 JLINK_ReadReg(FPS18)
T5204 001:514.532 - 0.006ms returns 0x00000000
T5204 001:514.539 JLINK_ReadReg(FPS19)
T5204 001:514.545 - 0.005ms returns 0x00000000
T5204 001:514.551 JLINK_ReadReg(FPS20)
T5204 001:514.557 - 0.006ms returns 0x00000000
T5204 001:514.564 JLINK_ReadReg(FPS21)
T5204 001:514.569 - 0.005ms returns 0x00000000
T5204 001:514.576 JLINK_ReadReg(FPS22)
T5204 001:514.582 - 0.005ms returns 0x00000000
T5204 001:514.588 JLINK_ReadReg(FPS23)
T5204 001:514.594 - 0.006ms returns 0x00000000
T5204 001:514.601 JLINK_ReadReg(FPS24)
T5204 001:514.607 - 0.006ms returns 0x00000000
T5204 001:514.613 JLINK_ReadReg(FPS25)
T5204 001:514.619 - 0.005ms returns 0x00000000
T5204 001:514.626 JLINK_ReadReg(FPS26)
T5204 001:514.632 - 0.006ms returns 0x00000000
T5204 001:514.638 JLINK_ReadReg(FPS27)
T5204 001:514.644 - 0.006ms returns 0x00000000
T5204 001:514.651 JLINK_ReadReg(FPS28)
T5204 001:514.657 - 0.006ms returns 0x00000000
T5204 001:514.663 JLINK_ReadReg(FPS29)
T5204 001:514.669 - 0.006ms returns 0x00000000
T5204 001:514.676 JLINK_ReadReg(FPS30)
T5204 001:514.682 - 0.006ms returns 0x00000000
T5204 001:514.688 JLINK_ReadReg(FPS31)
T5204 001:514.694 - 0.005ms returns 0x00000000
T5204 001:519.078 JLINK_WriteMemEx(0x20000000, 0x00001000 Bytes, Flags = 0x02000000)
T5204 001:519.103   Data:  20 04 01 20 29 0D 00 20 C1 01 00 20 33 0D 00 20 ...
T5204 001:519.125   CPU_WriteMem(4096 bytes @ 0x20000000)
T5204 001:536.714 - 17.634ms returns 0x1000
T5204 001:537.074 JLINK_WriteMemEx(0x20001000, 0x00000700 Bytes, Flags = 0x02000000)
T5204 001:537.126   Data:  AA 22 C8 F2 0A 02 1A 60 41 F6 04 02 C4 F2 02 02 ...
T5204 001:537.146   CPU_WriteMem(1792 bytes @ 0x20001000)
T5204 001:545.145 - 8.069ms returns 0x700
T5204 001:598.712 JLINK_ReadMemEx(0x20000000, 0x4 Bytes, Flags = 0x02000000)
T5204 001:598.749   CPU_ReadMem(64 bytes @ 0x20000000)
T5204 001:599.634    -- Updating C cache (64 bytes @ 0x20000000)
T5204 001:599.649    -- Read from C cache (4 bytes @ 0x20000000)
T5204 001:599.658   Data:  20 04 01 20
T5204 001:599.667 - 0.955ms returns 4 (0x4)
T5204 001:599.723 JLINK_HasError()
T5204 001:599.731 JLINK_WriteReg(R13 (SP), 0x20010420)
T5204 001:599.739 - 0.008ms returns 0
T5204 001:599.746 JLINK_HasError()
T5204 001:599.752 JLINK_ReadReg(R0)
T5204 001:599.758 - 0.006ms returns 0x00000000
T5204 001:599.765 JLINK_ReadReg(R1)
T5204 001:599.770 - 0.005ms returns 0x00000000
T5204 001:599.776 JLINK_ReadReg(R2)
T5204 001:599.782 - 0.005ms returns 0x00000000
T5204 001:599.788 JLINK_ReadReg(R3)
T5204 001:599.794 - 0.005ms returns 0x00000000
T5204 001:599.800 JLINK_ReadReg(R4)
T5204 001:599.805 - 0.005ms returns 0x00000000
T5204 001:599.811 JLINK_ReadReg(R5)
T5204 001:599.817 - 0.005ms returns 0x00000000
T5204 001:599.823 JLINK_ReadReg(R6)
T5204 001:599.828 - 0.005ms returns 0x00000000
T5204 001:599.834 JLINK_ReadReg(R7)
T5204 001:599.840 - 0.005ms returns 0x00000000
T5204 001:599.847 JLINK_ReadReg(R8)
T5204 001:599.852 - 0.005ms returns 0x00000000
T5204 001:599.859 JLINK_ReadReg(R9)
T5204 001:599.864 - 0.005ms returns 0x00000000
T5204 001:599.871 JLINK_ReadReg(R10)
T5204 001:599.876 - 0.005ms returns 0x00000000
T5204 001:599.883 JLINK_ReadReg(R11)
T5204 001:599.888 - 0.005ms returns 0x00000000
T5204 001:599.895 JLINK_ReadReg(R12)
T5204 001:599.901 - 0.005ms returns 0x00000000
T5204 001:599.907 JLINK_ReadReg(R13 (SP))
T5204 001:599.913 - 0.005ms returns 0x20010420
T5204 001:599.919 JLINK_ReadReg(R14)
T5204 001:599.925 - 0.005ms returns 0xFFFFFFFF
T5204 001:599.931 JLINK_ReadReg(R15 (PC))
T5204 001:599.937 - 0.006ms returns 0x08000008
T5204 001:599.944 JLINK_ReadReg(XPSR)
T5204 001:599.950 - 0.005ms returns 0x01000000
T5204 001:599.960 JLINK_ReadReg(MSP)
T5204 001:599.968 - 0.007ms returns 0x20010420
T5204 001:599.974 JLINK_ReadReg(PSP)
T5204 001:599.980 - 0.005ms returns 0x00000000
T5204 001:599.986 JLINK_ReadReg(CFBP)
T5204 001:599.992 - 0.005ms returns 0x00000000
T5204 001:599.998 JLINK_ReadReg(FPSCR)
T5204 001:600.004 - 0.005ms returns 0x00000000
T5204 001:600.010 JLINK_ReadReg(FPS0)
T5204 001:600.016 - 0.005ms returns 0x00000000
T5204 001:600.022 JLINK_ReadReg(FPS1)
T5204 001:600.028 - 0.005ms returns 0x00000000
T5204 001:600.035 JLINK_ReadReg(FPS2)
T5204 001:600.040 - 0.005ms returns 0x00000000
T5204 001:600.047 JLINK_ReadReg(FPS3)
T5204 001:600.053 - 0.005ms returns 0x00000000
T5204 001:600.059 JLINK_ReadReg(FPS4)
T5204 001:600.065 - 0.005ms returns 0x00000000
T5204 001:600.071 JLINK_ReadReg(FPS5)
T5204 001:600.077 - 0.005ms returns 0x00000000
T5204 001:600.083 JLINK_ReadReg(FPS6)
T5204 001:600.088 - 0.005ms returns 0x00000000
T5204 001:600.095 JLINK_ReadReg(FPS7)
T5204 001:600.101 - 0.005ms returns 0x00000000
T5204 001:600.107 JLINK_ReadReg(FPS8)
T5204 001:600.113 - 0.005ms returns 0x00000000
T5204 001:600.119 JLINK_ReadReg(FPS9)
T5204 001:600.125 - 0.006ms returns 0x00000000
T5204 001:600.131 JLINK_ReadReg(FPS10)
T5204 001:600.137 - 0.005ms returns 0x00000000
T5204 001:600.143 JLINK_ReadReg(FPS11)
T5204 001:600.149 - 0.005ms returns 0x00000000
T5204 001:600.155 JLINK_ReadReg(FPS12)
T5204 001:600.161 - 0.005ms returns 0x00000000
T5204 001:600.167 JLINK_ReadReg(FPS13)
T5204 001:600.173 - 0.005ms returns 0x00000000
T5204 001:600.180 JLINK_ReadReg(FPS14)
T5204 001:600.185 - 0.005ms returns 0x00000000
T5204 001:600.192 JLINK_ReadReg(FPS15)
T5204 001:600.197 - 0.005ms returns 0x00000000
T5204 001:600.204 JLINK_ReadReg(FPS16)
T5204 001:600.209 - 0.005ms returns 0x00000000
T5204 001:600.216 JLINK_ReadReg(FPS17)
T5204 001:600.222 - 0.006ms returns 0x00000000
T5204 001:600.228 JLINK_ReadReg(FPS18)
T5204 001:600.234 - 0.005ms returns 0x00000000
T5204 001:600.240 JLINK_ReadReg(FPS19)
T5204 001:600.246 - 0.005ms returns 0x00000000
T5204 001:600.252 JLINK_ReadReg(FPS20)
T5204 001:600.258 - 0.005ms returns 0x00000000
T5204 001:600.264 JLINK_ReadReg(FPS21)
T5204 001:600.270 - 0.005ms returns 0x00000000
T5204 001:600.276 JLINK_ReadReg(FPS22)
T5204 001:600.282 - 0.005ms returns 0x00000000
T5204 001:600.288 JLINK_ReadReg(FPS23)
T5204 001:600.294 - 0.005ms returns 0x00000000
T5204 001:600.300 JLINK_ReadReg(FPS24)
T5204 001:600.306 - 0.005ms returns 0x00000000
T5204 001:600.312 JLINK_ReadReg(FPS25)
T5204 001:600.318 - 0.005ms returns 0x00000000
T5204 001:600.324 JLINK_ReadReg(FPS26)
T5204 001:600.330 - 0.005ms returns 0x00000000
T5204 001:600.336 JLINK_ReadReg(FPS27)
T5204 001:600.342 - 0.005ms returns 0x00000000
T5204 001:600.348 JLINK_ReadReg(FPS28)
T5204 001:600.354 - 0.005ms returns 0x00000000
T5204 001:600.360 JLINK_ReadReg(FPS29)
T5204 001:600.366 - 0.005ms returns 0x00000000
T5204 001:600.373 JLINK_ReadReg(FPS30)
T5204 001:600.378 - 0.005ms returns 0x00000000
T5204 001:600.385 JLINK_ReadReg(FPS31)
T5204 001:600.391 - 0.005ms returns 0x00000000
T5204 001:600.398 JLINK_ReadMemEx(0x20000004, 0x4 Bytes, Flags = 0x02000000)
T5204 001:600.409    -- Read from C cache (4 bytes @ 0x20000004)
T5204 001:600.418   Data:  29 0D 00 20
T5204 001:600.427 - 0.028ms returns 4 (0x4)
T5204 001:600.434 JLINK_HasError()
T5204 001:600.441 JLINK_WriteReg(R15 (PC), 0x20000D28)
T5204 001:600.448 - 0.006ms returns 0
T5204 001:600.454 JLINK_HasError()
T5204 001:600.461 JLINK_ReadReg(R0)
T5204 001:600.467 - 0.006ms returns 0x00000000
T5204 001:600.473 JLINK_ReadReg(R1)
T5204 001:600.479 - 0.005ms returns 0x00000000
T5204 001:600.485 JLINK_ReadReg(R2)
T5204 001:600.491 - 0.005ms returns 0x00000000
T5204 001:600.498 JLINK_ReadReg(R3)
T5204 001:600.504 - 0.005ms returns 0x00000000
T5204 001:600.510 JLINK_ReadReg(R4)
T5204 001:600.518 - 0.007ms returns 0x00000000
T5204 001:600.525 JLINK_ReadReg(R5)
T5204 001:600.531 - 0.005ms returns 0x00000000
T5204 001:600.538 JLINK_ReadReg(R6)
T5204 001:600.548 - 0.009ms returns 0x00000000
T5204 001:600.555 JLINK_ReadReg(R7)
T5204 001:600.562 - 0.006ms returns 0x00000000
T5204 001:600.568 JLINK_ReadReg(R8)
T5204 001:600.574 - 0.005ms returns 0x00000000
T5204 001:600.580 JLINK_ReadReg(R9)
T5204 001:600.586 - 0.005ms returns 0x00000000
T5204 001:600.592 JLINK_ReadReg(R10)
T5204 001:600.598 - 0.005ms returns 0x00000000
T5204 001:600.604 JLINK_ReadReg(R11)
T5204 001:600.610 - 0.005ms returns 0x00000000
T5204 001:600.617 JLINK_ReadReg(R12)
T5204 001:600.623 - 0.005ms returns 0x00000000
T5204 001:600.629 JLINK_ReadReg(R13 (SP))
T5204 001:600.635 - 0.005ms returns 0x20010420
T5204 001:600.641 JLINK_ReadReg(R14)
T5204 001:600.648 - 0.006ms returns 0xFFFFFFFF
T5204 001:600.655 JLINK_ReadReg(R15 (PC))
T5204 001:600.661 - 0.006ms returns 0x20000D28
T5204 001:600.668 JLINK_ReadReg(XPSR)
T5204 001:600.674 - 0.006ms returns 0x01000000
T5204 001:600.681 JLINK_ReadReg(MSP)
T5204 001:600.687 - 0.006ms returns 0x20010420
T5204 001:600.694 JLINK_ReadReg(PSP)
T5204 001:600.699 - 0.005ms returns 0x00000000
T5204 001:600.706 JLINK_ReadReg(CFBP)
T5204 001:600.712 - 0.005ms returns 0x00000000
T5204 001:600.718 JLINK_ReadReg(FPSCR)
T5204 001:600.724 - 0.005ms returns 0x00000000
T5204 001:600.730 JLINK_ReadReg(FPS0)
T5204 001:600.736 - 0.005ms returns 0x00000000
T5204 001:600.742 JLINK_ReadReg(FPS1)
T5204 001:600.748 - 0.005ms returns 0x00000000
T5204 001:600.754 JLINK_ReadReg(FPS2)
T5204 001:600.760 - 0.005ms returns 0x00000000
T5204 001:600.766 JLINK_ReadReg(FPS3)
T5204 001:600.772 - 0.005ms returns 0x00000000
T5204 001:600.778 JLINK_ReadReg(FPS4)
T5204 001:600.784 - 0.005ms returns 0x00000000
T5204 001:600.790 JLINK_ReadReg(FPS5)
T5204 001:600.796 - 0.005ms returns 0x00000000
T5204 001:600.802 JLINK_ReadReg(FPS6)
T5204 001:600.808 - 0.005ms returns 0x00000000
T5204 001:600.815 JLINK_ReadReg(FPS7)
T5204 001:600.821 - 0.005ms returns 0x00000000
T5204 001:600.827 JLINK_ReadReg(FPS8)
T5204 001:600.833 - 0.005ms returns 0x00000000
T5204 001:600.839 JLINK_ReadReg(FPS9)
T5204 001:600.845 - 0.005ms returns 0x00000000
T5204 001:600.851 JLINK_ReadReg(FPS10)
T5204 001:600.857 - 0.005ms returns 0x00000000
T5204 001:600.864 JLINK_ReadReg(FPS11)
T5204 001:600.869 - 0.005ms returns 0x00000000
T5204 001:600.876 JLINK_ReadReg(FPS12)
T5204 001:600.882 - 0.005ms returns 0x00000000
T5204 001:600.888 JLINK_ReadReg(FPS13)
T5204 001:600.894 - 0.006ms returns 0x00000000
T5204 001:600.900 JLINK_ReadReg(FPS14)
T5204 001:600.906 - 0.005ms returns 0x00000000
T5204 001:600.912 JLINK_ReadReg(FPS15)
T5204 001:600.918 - 0.005ms returns 0x00000000
T5204 001:600.924 JLINK_ReadReg(FPS16)
T5204 001:600.930 - 0.005ms returns 0x00000000
T5204 001:600.937 JLINK_ReadReg(FPS17)
T5204 001:600.942 - 0.005ms returns 0x00000000
T5204 001:600.949 JLINK_ReadReg(FPS18)
T5204 001:600.955 - 0.005ms returns 0x00000000
T5204 001:600.961 JLINK_ReadReg(FPS19)
T5204 001:600.967 - 0.005ms returns 0x00000000
T5204 001:600.973 JLINK_ReadReg(FPS20)
T5204 001:600.979 - 0.005ms returns 0x00000000
T5204 001:600.985 JLINK_ReadReg(FPS21)
T5204 001:600.991 - 0.005ms returns 0x00000000
T5204 001:600.997 JLINK_ReadReg(FPS22)
T5204 001:601.003 - 0.005ms returns 0x00000000
T5204 001:601.009 JLINK_ReadReg(FPS23)
T5204 001:601.015 - 0.005ms returns 0x00000000
T5204 001:601.021 JLINK_ReadReg(FPS24)
T5204 001:601.027 - 0.005ms returns 0x00000000
T5204 001:601.033 JLINK_ReadReg(FPS25)
T5204 001:601.039 - 0.005ms returns 0x00000000
T5204 001:601.045 JLINK_ReadReg(FPS26)
T5204 001:601.051 - 0.005ms returns 0x00000000
T5204 001:601.057 JLINK_ReadReg(FPS27)
T5204 001:601.063 - 0.005ms returns 0x00000000
T5204 001:601.069 JLINK_ReadReg(FPS28)
T5204 001:601.075 - 0.005ms returns 0x00000000
T5204 001:601.081 JLINK_ReadReg(FPS29)
T5204 001:601.087 - 0.005ms returns 0x00000000
T5204 001:601.093 JLINK_ReadReg(FPS30)
T5204 001:601.099 - 0.006ms returns 0x00000000
T5204 001:601.106 JLINK_ReadReg(FPS31)
T5204 001:601.111 - 0.005ms returns 0x00000000
T5204 001:601.119 JLINK_WriteMemEx(0xE000ED08, 0x00000004 Bytes, Flags = 0x02000000)
T5204 001:601.126   Data:  00 00 00 20
T5204 001:601.140   CPU_WriteMem(4 bytes @ 0xE000ED08)
T5204 001:601.595 - 0.475ms returns 0x4
T5204 001:604.769 JLINK_ReadMemEx(0xE000ED28, 0x4 Bytes, Flags = 0x02000000)
T5204 001:604.795   CPU_ReadMem(4 bytes @ 0xE000ED28)
T5204 001:605.209   Data:  00 00 00 00
T5204 001:605.220 - 0.451ms returns 4 (0x4)
T5204 001:606.820 JLINK_HasError()
T5204 001:606.841 JLINK_ReadMemU32(0xE0001004, 0x1 Items)
T5204 001:606.851   Data:  00 00 00 00
T5204 001:606.860   Debug reg: DWT_CYCCNT
T5204 001:606.869 - 0.028ms returns 1 (0x1)
T5204 001:607.100 JLINK_ReadMemEx(0x40001000, 0x4 Bytes, Flags = 0x02000004)
T5204 001:607.113   CPU_ReadMem(4 bytes @ 0x40001000)
T5204 001:607.531   Data:  00 00 00 00
T5204 001:607.543 - 0.442ms returns 4 (0x4)
T5204 001:607.552 JLINK_ReadMemEx(0x40001004, 0x4 Bytes, Flags = 0x02000004)
T5204 001:607.560   CPU_ReadMem(4 bytes @ 0x40001004)
T5204 001:608.083   Data:  00 00 00 00
T5204 001:608.093 - 0.541ms returns 4 (0x4)
T5204 001:608.101 JLINK_ReadMemEx(0x4000100C, 0x4 Bytes, Flags = 0x02000004)
T5204 001:608.128   CPU_ReadMem(4 bytes @ 0x4000100C)
T5204 001:608.527   Data:  00 00 00 00
T5204 001:608.536 - 0.435ms returns 4 (0x4)
T5204 001:608.544 JLINK_ReadMemEx(0x40001010, 0x4 Bytes, Flags = 0x02000004)
T5204 001:608.550   CPU_ReadMem(4 bytes @ 0x40001010)
T5204 001:608.958   Data:  00 00 00 00
T5204 001:608.967 - 0.423ms returns 4 (0x4)
T5204 001:608.975 JLINK_ReadMemEx(0x40001024, 0x8 Bytes, Flags = 0x02000004)
T5204 001:608.982   CPU_ReadMem(8 bytes @ 0x40001024)
T5204 001:609.451   Data:  00 00 00 00 00 00 00 00
T5204 001:609.470 - 0.494ms returns 8 (0x8)
T5204 001:609.480 JLINK_ReadMemEx(0x4000102C, 0x4 Bytes, Flags = 0x02000004)
T5204 001:609.490   CPU_ReadMem(4 bytes @ 0x4000102C)
T5204 001:609.816   Data:  00 00 00 00
T5204 001:609.827 - 0.347ms returns 4 (0x4)
T5204 001:609.935 JLINK_ReadMemEx(0x40004800, 0x18 Bytes, Flags = 0x02000004)
T5204 001:609.944   CPU_ReadMem(24 bytes @ 0x40004800)
T5204 001:610.525   Data:  00 00 00 00 00 00 00 00 00 00 00 00 00 00 00 00 ...
T5204 001:610.537 - 0.602ms returns 24 (0x18)
T5204 001:610.545 JLINK_ReadMemEx(0x40004818, 0x4 Bytes, Flags = 0x02000004)
T5204 001:610.552   CPU_ReadMem(4 bytes @ 0x40004818)
T5204 001:610.954   Data:  00 00 00 00
T5204 001:610.992 - 0.447ms returns 4 (0x4)
T5204 001:611.090 JLINK_ReadMemEx(0x40023800, 0x18 Bytes, Flags = 0x02000004)
T5204 001:611.098   CPU_ReadMem(24 bytes @ 0x40023800)
T5204 001:611.678   Data:  83 81 00 00 10 30 00 24 00 00 00 00 00 00 00 00 ...
T5204 001:611.688 - 0.597ms returns 24 (0x18)
T5204 001:611.696 JLINK_ReadMemEx(0x40023818, 0x4 Bytes, Flags = 0x02000004)
T5204 001:611.703   CPU_ReadMem(4 bytes @ 0x40023818)
T5204 001:612.105   Data:  00 00 00 00
T5204 001:612.114 - 0.419ms returns 4 (0x4)
T5204 001:612.140 JLINK_ReadMemEx(0x40023820, 0x4 Bytes, Flags = 0x02000004)
T5204 001:612.146   CPU_ReadMem(4 bytes @ 0x40023820)
T5204 001:612.565   Data:  00 00 00 00
T5204 001:612.586 - 0.445ms returns 4 (0x4)
T5204 001:612.602 JLINK_ReadMemEx(0x40023824, 0x4 Bytes, Flags = 0x02000004)
T5204 001:612.609   CPU_ReadMem(4 bytes @ 0x40023824)
T5204 001:613.005   Data:  00 00 00 00
T5204 001:613.014 - 0.412ms returns 4 (0x4)
T5204 001:613.022 JLINK_ReadMemEx(0x40023830, 0x8 Bytes, Flags = 0x02000004)
T5204 001:613.028   CPU_ReadMem(8 bytes @ 0x40023830)
T5204 001:613.488   Data:  00 00 10 00 00 00 00 00
T5204 001:613.497 - 0.475ms returns 8 (0x8)
T5204 001:613.505 JLINK_ReadMemEx(0x40023838, 0x4 Bytes, Flags = 0x02000004)
T5204 001:613.512   CPU_ReadMem(4 bytes @ 0x40023838)
T5204 001:613.975   Data:  00 00 00 00
T5204 001:613.997 - 0.491ms returns 4 (0x4)
T5204 001:614.004 JLINK_ReadMemEx(0x40023840, 0x4 Bytes, Flags = 0x02000004)
T5204 001:614.011   CPU_ReadMem(4 bytes @ 0x40023840)
T5204 001:614.366   Data:  00 00 00 00
T5204 001:614.376 - 0.371ms returns 4 (0x4)
T5204 001:614.383 JLINK_ReadMemEx(0x40023844, 0x4 Bytes, Flags = 0x02000004)
T5204 001:614.393   CPU_ReadMem(4 bytes @ 0x40023844)
T5204 001:614.790   Data:  00 00 00 00
T5204 001:614.800 - 0.417ms returns 4 (0x4)
T5204 001:614.808 JLINK_ReadMemEx(0x40023850, 0x8 Bytes, Flags = 0x02000004)
T5204 001:614.815   CPU_ReadMem(8 bytes @ 0x40023850)
T5204 001:615.298   Data:  FF 97 EF 7E F1 00 00 00
T5204 001:615.316 - 0.507ms returns 8 (0x8)
T5204 001:615.323 JLINK_ReadMemEx(0x40023858, 0x4 Bytes, Flags = 0x02000004)
T5204 001:615.330   CPU_ReadMem(4 bytes @ 0x40023858)
T5204 001:615.733   Data:  01 00 00 00
T5204 001:615.747 - 0.423ms returns 4 (0x4)
T5204 001:615.756 JLINK_ReadMemEx(0x40023860, 0x4 Bytes, Flags = 0x02000004)
T5204 001:615.766   CPU_ReadMem(4 bytes @ 0x40023860)
T5204 001:616.208   Data:  FF C9 FE F6
T5204 001:616.221 - 0.464ms returns 4 (0x4)
